   ---   42   cards of disk file read into card cache cells  1   onward.
 <===> Done with  "/"-card sorting by data class.    Remember that the source file appears different from interpreted input data.
Alternative Transients Program (ATP),  GNU Linux or DOS.  All rights reserved by Can/Am user group of Portland, Oregon, USA.
 Date (dd-mth-yy) and time of day (hh.mm.ss) = 27-Jul-23  20:37:07   Name of disk plot file is  a.pl4
Consult the 860-page ATP Rule Book of the Can/Am EMTP User Group in Portland,  Oregon, USA.  Source code date is 22 January 2007.
Total size of LABCOM tables = 10913313 INTEGER words.  31 VARDIM  List Sizes follow:  6002  10K  192K  900  420K  1200  15K
  120K  2250  3800  720  2K  72800  510  90K  800  90  254  120K  100K  3K  15K  192K  120  45K  260K  600  210K  600  19  200
--------------------------------------------------+--------------------------------------------------------------------------------
Descriptive interpretation of input data cards.   |  Input data card images are shown below, all 80 columns, character by character
                                                  0         1         2         3         4         5         6         7         8
                                                  012345678901234567890123456789012345678901234567890123456789012345678901234567890
--------------------------------------------------+--------------------------------------------------------------------------------
Comment card.   NUMDCD = 1.                       |C data:A.ATP
Marker card preceding new EMTP data case.         |BEGIN NEW DATA CASE
Comment card.   NUMDCD = 3.                       |C --------------------------------------------------------
Comment card.   NUMDCD = 4.                       |C Gerado por ATC - UTFPR
Comment card.   NUMDCD = 5.                       |C Gerado por Paula Bordin do Prado - Estudante de Engenharia Elétrica.
Comment card.   NUMDCD = 6.                       |C TrabalHo de Conclusão de Curso - 2017.
Comment card.   NUMDCD = 7.                       |C Escrito em MatLab por Paula Bordin do Prado - 2016/2017.
Comment card.   NUMDCD = 8.                       |C --------------------------------------------------------
Comment card.   NUMDCD = 9.                       |C  dT  >< Tmax >< Xopt >< Copt >
Misc. data.     1.000E-05   2.000E-01   6.000E+01 |   1.E-5      .2     60.     60.
Misc. data.     50    1  1  1  1  0  0  1  0  0   |      50       1       1       1       1       0       0       1       0
Comment card.   NUMDCD = 12.                      |C        1         2         3         4         5         6         7         8
Comment card.   NUMDCD = 13.                      |C 345678901234567890123456789012345678901234567890123456789012345678901234567890
Comment card.   NUMDCD = 14.                      |C < n 1>< n 2><ref1><ref2>< R  >< L  >< C  >
Comment card.   NUMDCD = 15.                      |C < n 1>< n 2><ref1><ref2>< R  >< A  >< B  ><Leng><><>0
Sat. Xformer.    0.000E+00  0.000E+00  1.000E+06  |  TRANSFORMER                         TX0001  1.E6                             0
    Breakpoint.      1.76750E-02    5.77130E-02   |        0.017675        0.057713
    Breakpoint.      1.75500E-01    7.50264E-01   |        0.175500        0.750264
    Breakpoint.      2.35875E+02    1.12539E+00   |      235.875000        1.125395
Special termination-of-points card.               |            9999
  Winding 1.   5.0000E-01  0.0000E+00  1.2000E+03 | 1      XX0002            .50000    0.1200.0
  Winding 2.   1.0000E-08  2.6526E-08  5.0000E+00 | 2XX0022XX0016             1.E-8 1.E-55.0000
Comment card.   NUMDCD = 23.                      |C prim
Series R-L-C.   7.534E-01  9.093E-03  0.000E+00   |  XX0018XX0016            .753403.4281                                         1
Series R-L-C.   1.000E-03  0.000E+00  0.000E+00   |  XX0008                    .001                                               0
Comment card.   NUMDCD = 26.                      |C sec
Series R-L-C.   3.530E+00  0.000E+00  0.000E+00   |  XX0002                  3.5300    0.                                         1
Blank card ending branches.  IBR, NTOT = 7  7     |BLANK BRANCH
Comment card.   NUMDCD = 29.                      |C < n 1>< n 2>< Tclose ><Top/Tde ><   Ie   ><Vf/CLOP ><  type  >
Switch.   2.92E-02  1.00E+00  0.00E+00  0.00E+00  |  XX0022XX0008  .0291681        1.                                             0
Blank card ending switches.   KSWTCH = 1.         |BLANK SWITCH
Comment card.   NUMDCD = 32.                      |C < n 1><>< Ampl.  >< Freq.  ><Phase/T0><   Isc   ><   T1   >< TSTART >< TSTOP
Source.   1.13E+05  6.00E+01  0.00E+00 -1.00E+00  |14XX0018 0112676.528       60.                                     -1.        1.
Source.  -1.41E+00  6.00E+01  0.00E+00 -1.00E+00  |14XX0022-1-1.4142       60.                                     -1.        1.
Blank card ends electric sources.  KCONST = 2     |BLANK SOURCE

List of input elements that are connected to each node.   Only the physical connections of multi-phase lines are shown (capacitive
and inductive coupling are ignored).   Repeated entries indicate parallel connections.   Switches are included,  although sources
(including rotating machinery) are omitted -- except that U.M. usage produces extra,  internally-defined nodes  "UMXXXX".
--------------+------------------------------
From bus name |  Names of all adjacent busses.
--------------+------------------------------
       TX0001 |TERRA *XX0002*XX0002*XX0002*
       XX0002 |TERRA *TX0001*TX0001*TX0001*
       XX0022 |XX0016*XX0008*
       XX0016 |XX0022*XX0018*
       XX0018 |XX0016*
       XX0008 |TERRA *XX0022*
       TERRA  |TX0001*XX0002*XX0008*
--------------+------------------------------
Nonlinear resistances, time-varying resistances, and type-94 MODELS components are ignored during the phasor solution. Nonlinear
inductors are linearized.

Sinusoidal steady-state phasor solution, branch by branch.   All flows are away from a bus,  and the real part,  magnitude,  or  "P"
is printed above the imaginary part,  the angle,  or  "Q".   The first solution frequency  =  6.00000000E+01  Hertz.
  Bus K                        Phasor  node  voltage              Phasor  branch  current               Power flow       Power loss
             Bus M         Rectangular            Polar          Rectangular            Polar            P  and  Q        P  and  Q

 TERRA                            0.0              0.0      .00589247623934  .00589247623935                  0.0  .86803190578E-5
                                  0.0              0.0      .10423486543E-7        0.0001014                  0.0              0.0

            TX0001    -.0029462381197  .00294623811967      -.0058924762393  .00589247623935      .86803190578E-5
                      -.5211743272E-8     -179.9998986      -.1042348654E-7     -179.9998986                  0.0

 TX0001               -.0029462381197  .00294623811967      -.2374667924E-7  .23746679245E-7       .349816858E-10  .28195238757E-9
                      -.5211743272E-8     -179.9998986      -.420066508E-13     -179.9998986      -.652284803E-26        0.0000000

            XX0002    .02080044112487   .0208004411249      .23746679245E-7  .23746679245E-7      .24697070177E-9
                      .36794907502E-7        0.0001014      .4200665077E-13        0.0001014      .6522863036E-26

 XX0022               112675.46244917  112675.46255347      -1.414199996442  1.4141999964445      -79672.81929072  .69973653353E-4
                      -4.848034561251       -0.0024652      -.2736385965E-5     -179.9998891      3.5822070066679        0.0000100

            XX0016    112675.46254813  112675.46265243      1.4141999964418  1.4141999964445      79672.819360691
                      -4.848020419076       -0.0024652      .27363859652E-5        0.0001109      -3.582197006871

 TX0001               -.0029462381197  .00294623811967      .00589249998517  .00589249998519      -.8680354038E-5  -.6996365355E-4
                      -.5211743272E-8     -179.9998986      .11401608185E-7        0.0001109      .1440827755E-11        0.0000000

            XX0002    .02080044112487   .0208004411249      -.0058924999852  .00589249998519      -.6128329951E-4
                      .36794907502E-7        0.0001014      -.1140160819E-7     -179.9998891      .1017224393E-10

 XX0018                    112676.528       112676.528      1.4141999972681  1.4141999972693       79673.57279489  .75338554687859
                                  0.0              0.0      .18694471625E-5        0.0000757      -.1053214077736        3.4280342

            XX0016    112675.46254813  112675.46265243      -1.414199997268  1.4141999972693      -79672.81940934
                      -4.848020419076       -0.0024652      -.1869447162E-5     -179.9999243      3.5333556435773

 XX0002               .02080044112487   .0208004411249      .00589247623934  .00589247623935      .61283052548E-4  .61283052548E-4
                      .36794907502E-7        0.0001014      .10423486545E-7        0.0001014      -.776870219E-26        0.0000000

            TERRA                 0.0              0.0      -.0058924762393  .00589247623935                  0.0
                                  0.0              0.0      -.1042348654E-7     -179.9998986                  0.0
     Total network loss  P-loss  by summing injections =   7.534489244026E-01

Output for steady-state phasor switch currents.
      Node-K    Node-M            I-real            I-imag            I-magn          Degrees        Power            Reactive
      XX0022    XX0008            Open              Open              Open             Open          Open              Open

Solution at nodes with known voltage.   Nodes that are shorted together by switches are shown as a group of names, with the printed
result applying to the composite group.   The entry "MVA" is  SQRT( P**2 + Q**2 )  in units of power,  while  "P.F."  is the
associated power factor.
              Node                Source  node  voltage             Injected  source  current              Injected  source  power
              name         Rectangular            Polar          Rectangular            Polar            P  and  Q    MVA and P.F.

              XX0018       112676.528       112676.528      1.4141999972681  1.4141999972694      79673.572794891  79673.572794961
                                  0.0              0.0      .18694485995E-5        0.0000757      -.1053214887319        1.0000000

Card of names for time-step loop output.          |  XX0002
Blank card ending requests for output variables.  |BLANK OUTPUT

Column headings for the  3   EMTP output variables follow.  These are divided among the 5 possible classes as follows ....
  First  1     output variables are electric-network voltage differences (upper voltage minus lower voltage);
  Next   2     output variables are branch currents (flowing from the upper node to the lower node);
   Step      Time      XX0002     XX0018     XX0002
                                  XX0016     TERRA
      0       0.0  .020800441     1.4142 .005892476
     50     .5E-3  .020419252 1.38915063 .005784491
    100     .1E-2  .019314708 1.31488991 .005471589
    150     .0015   .01752594 1.19404855 .004964855
    200      .002  .015116313 1.03090743 .004282242
    250     .0025  .012171192 .831245904  .00344793
    300      .003  .008794909 .602137074 .002491476
    350     .0035  .005107069 .351697238 .001446762
    400      .004  .001238316 .088798353 .350798E-3
    450     .0045   -.0026743 -.17724626 -.75759E-3
    500      .005  -.00649216 -.43701183 -.00183914
    550     .0055  -.01008003 -.68129605 -.00285553
    600      .006  -.01331081 -.90144501 -.00377077
    650     .0065  -.01607003 -1.0896598 -.00455242
    700      .007  -.01825996 -1.2392729 -.00517279
    750     .0075  -.01980301 -1.3449841 -.00560992
    800      .008  -.02064452 -1.4030486  -.0058483
    850     .0085  -.02075468 -1.4114094 -.00587951
    900      .009  -.02012959 -1.3697703 -.00570243
    950     .0095  -.01879139 -1.2796064 -.00532334
   1000       .01  -.01678748 -1.1441118 -.00475566
   1050     .0105  -.01418887 -.96808652 -.00401951
   1100      .011   -.0110876 -.75776625 -.00314096
   1150     .0115  -.00759354 -.52060174 -.00215114
   1200      .012  -.00383046 -.26499466 -.00108512
   1250     .0125   .68316E-4 -.1849E-12  .19353E-4
   1300      .013  .003964682 .264994655 .001123139
   1350     .0135  .007720605 .520601742  .00218714
   1400      .014  .011203029 .757766253 .003173663
   1450     .0145  .014288588 .968086517 .004047759
   1500      .015  .016867975 1.14411183 .004778463
   1550     .0155  .018849813 1.27960642  .00533989
   1600      .016  .020163895 1.36977031 .005712151
   1650     .0165  .020763668  1.4114094 .005882059
   1700      .017  .020627886 1.40304861 .005843594
   1750     .0175  .019761358 1.34498413 .005598118
   1800      .018  .018194782 1.23927291 .005154329
   1850     .0185  .015983655 1.08965983 .004527948
   1900      .019  .013206306 .901445006 .003741163
   1950     .0195  .009961126 .681296046 .002821849
   2000       .02  .006363075 .437011833 .001802571
   2050     .0205  .002539616 .177246259 .719438E-3
   2100      .021   -.0013738 -.08879835 -.38918E-3
   2150     .0215  -.00523854 -.35169724 -.00148401
   2200      .022   -.0089177 -.60213707 -.00252626
   2250     .0225  -.01228094  -.8312459 -.00347902
   2300      .023  -.01520911 -1.0309074 -.00430853
   2350     .0235  -.01759848 -1.1940486  -.0049854
   2400      .024  -.01936441 -1.3148899 -.00548567
   2450     .0245  -.02044433 -1.3891506  -.0057916
   2500      .025      -.0208    -1.4142 -.00589235
   2550     .0255  -.02041881 -1.3891506 -.00578437
   2600      .026  -.01931427 -1.3148899 -.00547146
   2650     .0265   -.0175255 -1.1940486 -.00496473
   2700      .027  -.01511588 -1.0309074 -.00428212
   2750     .0275  -.01217075  -.8312459 -.00344781
   2800      .028  -.00879447 -.60213707 -.00249135
   2850     .0285  -.00510663 -.35169724 -.00144664
   2900      .029  -.00123788 -.08879835 -.35067E-3
 ***                                                             Close switch  "XX0022"  to  "XX0008"  after  2.91700000E-02  sec.
   2950     .0295  3.77523772 256.705067 1.06947244
   3000       .03  23.1139868 1572.03457 6.54787162
   3050     .0305  57.6010791 3918.41879 16.3175861
   3100      .031  105.360565 7168.57493 29.8471856
   3150     .0315   164.07956 11164.9981 46.4814617
   3200      .032   231.06574 15725.4682 65.4577169
   3250     .0325  303.366235 20649.4351 85.9394433
   3300      .033  377.863474 25725.0561 107.043477
   3350     .0335  279.895952 30736.6456 79.2906381
   3400      .034  118.087174 35472.2948 33.4524571
   3450     .0345  68.3268228  39731.182 19.3560405
   3500      .035  48.6513118 43330.7296 13.7822413
   3550     .0355  36.1638404 46113.0179  10.244714
   3600      .036  24.6653711 47950.3177 6.98735724
   3650     .0365  12.7007098 48749.5625  3.5979348
   3700      .037  .178060653 48455.5964 .050442111
   3750     .0375   -12.59527 47053.0821 -3.5680652
   3800      .038   -25.19652 44566.9993 -7.1378242
   3850     .0385  -37.179328 41061.7175 -10.532387
   3900      .039  -48.111211 36638.6749 -13.629238
   3950     .0395  -57.594976 31432.7458 -16.315857
   4000       .04  -65.284494 25607.4248 -18.494191
   4050     .0405  -70.897432 19348.9994 -20.084258
   4100      .041  -74.225373 12859.9157 -21.027018
   4150     .0415  -75.141223 6351.57344 -21.286465
   4200      .042  -73.603705 36.8057877 -20.850908
   4250     .0425  -87.063114  -5877.691 -24.663772
   4300      .043  -165.26758 -11198.695 -46.818011
   4350     .0435  -232.16705 -15753.356 -65.769703
   4400      .044  -285.61495 -19395.342 -80.910751
   4450     .0445  -323.93216 -22010.045 -91.765483
   4500      .045  -345.96187  -23518.66 -98.006196
   4550     .0455  -351.10372 -23881.007 -99.462812
   4600      .046  -339.41277 -23096.974 -96.150926
   4650     .0465  -311.45772 -21206.541 -88.231648
   4700      .047  -268.40304 -18288.388 -76.034856
   4750     .0475  -72.402482 -14457.143 -20.510618
   4800      .048  18.5275285 -9859.3166 5.24859165
   4850     .0485  48.9545291    -4668.1 13.8681386
   4900      .049  60.6926553 922.695082 17.1933868
   4950     .0495  99.2303357 6705.49606 28.1105767
   5000       .05   183.89673 12466.2994  52.095391
   5050     .0505  265.070847 17992.2632 75.0908914
   5100      .051    339.7521 23079.2246 96.2470538
   5150     .0515  405.174997  27538.914 114.780452
   5200      .052  458.874972 31205.6107  129.99291
   5250     .0525  498.902085 33942.0006 141.332035
   5300      .053  523.700573 35644.0277 148.357103
   5350     .0535  204.203141  36244.605 57.8479154
   5400      .054   52.191046 35715.9376 14.7849989
   5450     .0545  .046533185 34070.4193 .013182205
   5500      .055  -23.473351 31360.2989 -6.6496745
   5550     .0555   -38.13928 27675.7951 -10.804329
   5600      .056  -49.238491 23141.8829 -13.948581
   5650     .0565  -58.012989 17913.8545 -16.434274
   5700      .057   -64.61114 12171.8081 -18.303439
   5750     .0575  -68.926939 6114.25847 -19.526045
   5800      .058  -70.841856 -48.903205 -20.068514
   5850     .0585  -90.388328  -6103.853 -25.605759
   5900      .059  -174.70197 -11840.403 -49.490643
   5950     .0595  -251.36737 -17059.477 -71.208886
   6000       .06  -317.72786  -21580.17 -90.007893
   6050     .0605  -371.48943 -25246.156  -105.2378
   6100      .061  -410.77438 -27931.233 -116.36668
   6150     .0615  -434.29352 -29543.796 -123.02933
   6200      .062  -441.24446 -30030.094 -124.99843
   6250     .0625  -361.03233 -29376.138 -102.27545
   6300      .063  -86.104581 -27608.256 -24.392233
   6350     .0635  .076900286  -24792.03 .021784784
   6400      .064   32.159778 -21030.057 9.11041871
   6450     .0645  47.8296507 -16458.339 13.5494761
   6500      .065  57.4772433 -11241.461 16.2825052
   6550     .0655  63.8475723 -5566.7565  18.087131
   6600      .066  67.5860581 362.324288 19.1461921
   6650     .0665  93.7624479 6333.41678    26.5616
   6700      .067  178.997813 12132.7477 50.7075959
   6750     .0675  258.615648 17552.7297 73.2622232
   6800      .068  329.764965 22399.3067 93.4178371
   6850     .0685   389.89602 26498.8192  110.45213
   6900      .069  436.818658 29704.1527 123.744662
   6950     .0695  468.906442 31899.9461 132.834686
   7000       .07  484.964885 33006.6754  137.38382
   7050     .0705  258.787401 32983.4837 73.3108784
   7100      .071  62.3753626 31829.6481 17.6700744
   7150     .0715  -2.0511807 29584.4635 -.58107102
   7200      .072  -28.584382  26325.975 -8.0975586
   7250     .0725  -43.454117 22168.1992 -12.309948
   7300      .073  -53.792981 17257.0719 -15.238805
   7350     .0735  -61.393617 11765.2726 -17.391959
   7400      .074  -66.594979 5886.10508 -18.865433
   7450     .0745  -69.383855 -173.35392 -19.655483
   7500      .075  -91.795523 -6199.5912 -26.004397
   7550     .0755  -176.75658 -11980.209 -50.072685
   7600      .076  -255.07086 -17311.476 -72.258035
   7650     .0765  -323.97914 -22005.544 -91.778793
   7700      .077  -381.05477 -25897.095 -107.94753
   7750     .0775  -424.25715 -28849.202 -120.18616
   7800      .078  -452.13371  -30758.18 -128.08321
   7850     .0785  -463.67592 -31557.261 -131.35295
   7900      .079  -301.24624 -31218.969 -85.338877
   7950     .0795  -71.779111 -29756.137 -20.334026
   8000       .08  1.79402172 -27221.305 .508221451
   8050     .0805  30.6303516 -23704.975 8.67715342
   8100      .081  45.7813073 -19332.405 12.9692089
   8150     .0815  55.7525481 -14259.164  15.793923
   8200      .082  62.7403343 -8665.6159 17.7734658
   8250     .0825  67.2161023 -2750.5307 19.0413888
   8300      .083  69.2242025 3275.95532 19.6102557
